
T2A78 009:474 SEGGER J-Link V4.50l Log File (0000ms, 0001ms total)
T2A78 009:474 DLL Compiled: Jul  9 2012 15:02:49 (0000ms, 0001ms total)
T2A78 009:474 Logging started @ 2022-10-09 22:16 (0000ms, 0001ms total)
T2A78 009:474 JLINK_SetWarnOutHandler(...) (0000ms, 0001ms total)
T2A78 009:474 JLINK_OpenEx(...)
Firmware: J-Link ARM V8 compiled Nov 28 2014 13:44:46
Hardware: V8.00
S/N: 158000503
Feature(s): RDI,FlashDL,FlashBP,JFlash,GDBFULL  returns O.K. (0011ms, 0012ms total)
T2A78 009:485 JLINK_GetEmuCaps()  returns 0xB9FF7BBF (0000ms, 0012ms total)
T2A78 009:485 JLINK_TIF_GetAvailable(...) (0000ms, 0012ms total)
T2A78 009:485 JLINK_SetErrorOutHandler(...) (0000ms, 0012ms total)
T2A78 009:485 JLINK_ExecCommand("ProjectFile = "E:\Code\STM32\GPIO\IOToggle\JLinkSettings.ini"", ...)  returns 0x00 (0001ms, 0013ms total)
T2A78 009:488 JLINK_ExecCommand("Device = STM32F103ZE", ...)
                JLINK_ExecCommand("map ram 0x20000000 - 0x2000FFFF", ...)  returns 0x00 (0000ms, 0000ms total)
                JLINK_AddMirrorAreaEx(Addr = 0x00000000, Size = 0x00000000) (0000ms, 0000ms total)
              Device "STM32F103ZE" selected (512 KB flash, 64 KB RAM).  returns 0x00 (0002ms, 0015ms total)
T2A78 009:490 JLINK_ExecCommand("DisableConnectionTimeout", ...)  returns 0x00 (0000ms, 0015ms total)
T2A78 009:490 JLINK_GetHardwareVersion()  returns 0x13880 (0000ms, 0015ms total)
T2A78 009:490 JLINK_GetDLLVersion()  returns 45012 (0000ms, 0015ms total)
T2A78 009:490 JLINK_GetFirmwareString(...) (0000ms, 0015ms total)
T2A78 009:502 JLINK_GetDLLVersion()  returns 45012 (0000ms, 0015ms total)
T2A78 009:502 JLINK_GetCompileDateTime() (0000ms, 0015ms total)
T2A78 009:505 JLINK_GetFirmwareString(...) (0000ms, 0015ms total)
T2A78 009:508 JLINK_GetHardwareVersion()  returns 0x13880 (0000ms, 0015ms total)
T2A78 009:527 JLINK_TIF_Select(JLINKARM_TIF_JTAG)  returns 0x00 (0000ms, 0015ms total)
T2A78 009:527 JLINK_SetSpeed(5000) (0000ms, 0015ms total)
T2A78 009:527 JLINK_GetIdData(...) >0x2F8 JTAG>TotalIRLen = 9, IRPrint = 0x0011 >0x30 JTAG> >0x210 JTAG> >0x40 JTAG> >0x40 JTAG> >0x40 JTAG> >0x30 JTAG> >0x40 JTAG> >0x40 JTAG> >0x40 JTAG> >0x40 JTAG> >0x40 JTAG> >0x40 JTAG> >0x40 JTAG> >0x40 JTAG> >0x2F8 JTAG>TotalIRLen = 9, IRPrint = 0x0011 >0x30 JTAG> >0x210 JTAG> >0x80 JTAG> >0x40 JTAG> >0x40 JTAG> >0x50 JTAG> >0x40 JTAG> >0x40 JTAG> >0x40 JTAG> >0x50 JTAG> >0x40 JTAG> >0x50 JTAG> >0x40 JTAG> >0x40 JTAG> >0x40 JTAG> >0x40 JTAG> >0x30 JTAG>
 >0x40 JTAG> >0x50 JTAG> >0x40 JTAG> >0x38 JTAG> >0x80 JTAG> >0x40 JTAG> >0x40 JTAG> >0x50 JTAG> >0x40 JTAG> >0x40 JTAG> >0x40 JTAG> >0x50 JTAG> >0x40 JTAG> >0x40 JTAG> >0x30 JTAG> >0x40 JTAG> >0x40 JTAG> >0x40 JTAG> >0x40 JTAG> >0x40 JTAG> >0x50 JTAG> >0x40 JTAG> >0x80 JTAG> >0x40 JTAG> >0x30 JTAG> >0x40 JTAG> >0x40 JTAG> >0x40 JTAG> >0x40 JTAG> >0x40 JTAG> >0x50 JTAG> >0x40 JTAG> >0x80 JTAG> >0x40 JTAG> >0x30 JTAG> >0x40 JTAG> >0x50 JTAG> >0x40 JTAG> >0x40 JTAG> >0x40 JTAG> >0x30 JTAG> >0x40 JTAG>
 >0x50 JTAG> >0x40 JTAG>Found Cortex-M3 r1p1, Little endian. >0x50 JTAG> >0x50 JTAG> >0x40 JTAG> >0x40 JTAG> >0x30 JTAG> >0x30 JTAG> >0x50 JTAG> >0x40 JTAG> >0x80 JTAG> >0x40 JTAG> >0x30 JTAG> >0x40 JTAG> >0x50 JTAG> >0x40 JTAG> >0x40 JTAG> >0x40 JTAG> >0x30 JTAG> >0x40 JTAG> >0x50 JTAG> >0x40 JTAG>TPIU fitted. >0x40 JTAG> >0x40 JTAG> >0x30 JTAG> >0x40 JTAG> >0x50 JTAG> >0x40 JTAG>ETM fitted. >0x40 JTAG> >0x40 JTAG> >0x30 JTAG> >0x40 JTAG> >0x50 JTAG> >0x40 JTAG> >0x40 JTAG> >0x40 JTAG> >0x30 JTAG>
 >0x40 JTAG> >0x50 JTAG> >0x40 JTAG>FPUnit: 6 code (BP) slots and 2 literal slots >0x40 JTAG> >0x40 JTAG> >0x30 JTAG> >0x40 JTAG> >0x50 JTAG> >0x40 JTAG> >0x40 JTAG> >0x40 JTAG> >0x30 JTAG> >0x40 JTAG> >0x50 JTAG> >0x40 JTAG> ScanLen=9 NumDevices=2 aId[0]=0x3BA00477 aIrRead[0]=0 aScanLen[0]=0 aScanRead[0]=0 (0047ms, 0062ms total)
T2A78 009:574 JLINK_JTAG_GetDeviceID(DeviceIndex = 0)  returns 0x3BA00477 (0000ms, 0062ms total)
T2A78 009:574 JLINK_JTAG_GetDeviceInfo(DeviceIndex = 0)  returns 0x00 (0000ms, 0062ms total)
T2A78 009:574 JLINK_JTAG_GetDeviceID(DeviceIndex = 1)  returns 0x6414041 (0000ms, 0062ms total)
T2A78 009:574 JLINK_JTAG_GetDeviceInfo(DeviceIndex = 1)  returns 0x00 (0000ms, 0062ms total)
T2A78 009:574 JLINK_GetDLLVersion()  returns 45012 (0000ms, 0062ms total)
T2A78 009:574 JLINK_CORE_GetFound()  returns 0x30000FF (0001ms, 0063ms total)
T2A78 009:577 JLINK_GetDebugInfo(0x100) -- Value=0xE00FF003  returns 0x00 (0000ms, 0063ms total)
T2A78 009:577 JLINK_GetDebugInfo(0x101)  returns 0xFFFFFFFF (0000ms, 0063ms total)
T2A78 009:577 JLINK_ReadMemEx(0xE0041FF0, 0x0010 Bytes, ..., AccessWidth = 33554436) -- CPU is running -- CPU_ReadMem(16 bytes @ 0xE0041FF0) -- Data:  0D 00 00 00 90 00 00 00 05 00 00 00 B1 00 00 00  returns 0x10 (0004ms, 0067ms total)
T2A78 009:581 JLINK_ReadMemEx(0xE0041FD0, 0x0020 Bytes, ..., AccessWidth = 33554436) -- CPU is running -- CPU_ReadMem(32 bytes @ 0xE0041FD0) -- Data:  04 00 00 00 00 00 00 00 00 00 00 00 00 00 00 00 ...  returns 0x20 (0001ms, 0068ms total)
T2A78 009:582 JLINK_GetDebugInfo(0x102)  returns 0xFFFFFFFF (0000ms, 0068ms total)
T2A78 009:582 JLINK_GetDebugInfo(0x103)  returns 0xFFFFFFFF (0000ms, 0068ms total)
T2A78 009:582 JLINK_ReadMemEx(0xE0040FF0, 0x0010 Bytes, ..., AccessWidth = 33554436) -- CPU is running -- CPU_ReadMem(16 bytes @ 0xE0040FF0) -- Data:  0D 00 00 00 90 00 00 00 05 00 00 00 B1 00 00 00  returns 0x10 (0000ms, 0068ms total)
T2A78 009:582 JLINK_GetDebugInfo(0x104)  returns 0xFFFFFFFF (0000ms, 0068ms total)
T2A78 009:582 JLINK_GetDebugInfo(0x105)  returns 0xFFFFFFFF (0000ms, 0068ms total)
T2A78 009:582 JLINK_GetDebugInfo(0x106)  returns 0xFFFFFFFF (0000ms, 0068ms total)
T2A78 009:582 JLINK_GetDebugInfo(0x107)  returns 0xFFFFFFFF (0000ms, 0068ms total)
T2A78 009:582 JLINK_GetDebugInfo(0x10C)  returns 0xFFFFFFFF (0000ms, 0068ms total)
T2A78 009:582 JLINK_GetDebugInfo(0x01)  returns 0xFFFFFFFF (0000ms, 0068ms total)
T2A78 009:582 JLINK_GetDeviceFamily()  returns 3 (0000ms, 0068ms total)
T2A78 009:582 JLINK_ReadMemU32(0xE000ED00, 0x0001 Items, ...) -- CPU is running -- CPU_ReadMem(4 bytes @ 0xE000ED00) -- Data:  31 C2 1F 41  returns 0x01 (0001ms, 0069ms total)
T2A78 009:583 JLINK_GetDebugInfo(0x10F)  returns 0xFFFFFFFF (0000ms, 0069ms total)
T2A78 009:583 JLINK_SetResetType(JLINKARM_RESET_TYPE_NORMAL)  returns JLINKARM_RESET_TYPE_NORMAL (0000ms, 0069ms total)
T2A78 009:583 JLINK_Reset() >0x48 JTAG> >0x80 JTAG> >0x40 JTAG> >0x40 JTAG> >0x50 JTAG> >0x40 JTAG> >0x40 JTAG> >0x40 JTAG> >0x50 JTAG> >0x40 JTAG> >0x40 JTAG> >0x30 JTAG> >0x40 JTAG> >0x40 JTAG> >0x40 JTAG> >0x40 JTAG> >0x40 JTAG> >0x50 JTAG> >0x40 JTAG> >0x80 JTAG> >0x40 JTAG> >0x30 JTAG> >0x40 JTAG> >0x40 JTAG> >0x40 JTAG> >0x40 JTAG> >0x40 JTAG> >0x50 JTAG> >0x40 JTAG> >0x80 JTAG> >0x40 JTAG> >0x30 JTAG> >0x40 JTAG> >0x50 JTAG> >0x40 JTAG> >0x40 JTAG> >0x40 JTAG> >0x30 JTAG> >0x40 JTAG> >0x50 JTAG>
 >0x40 JTAG>Found Cortex-M3 r1p1, Little endian. >0x50 JTAG> >0x50 JTAG> >0x40 JTAG> >0x40 JTAG> >0x30 JTAG> >0x30 JTAG> >0x50 JTAG> >0x40 JTAG> >0x80 JTAG> >0x40 JTAG> >0x30 JTAG> >0x40 JTAG> >0x50 JTAG> >0x40 JTAG> >0x40 JTAG> >0x40 JTAG> >0x30 JTAG> >0x40 JTAG> >0x50 JTAG> >0x40 JTAG>TPIU fitted. >0x40 JTAG> >0x40 JTAG> >0x30 JTAG> >0x40 JTAG> >0x50 JTAG> >0x40 JTAG>ETM fitted. >0x40 JTAG> >0x40 JTAG> >0x30 JTAG> >0x40 JTAG> >0x50 JTAG> >0x40 JTAG> >0x40 JTAG> >0x40 JTAG> >0x30 JTAG> >0x40 JTAG>
 >0x50 JTAG> >0x40 JTAG>FPUnit: 6 code (BP) slots and 2 literal slots >0x40 JTAG> >0x40 JTAG> >0x30 JTAG> >0x40 JTAG> >0x50 JTAG> >0x40 JTAG> >0x40 JTAG> >0x40 JTAG> >0x30 JTAG> >0x40 JTAG> >0x50 JTAG> >0x40 JTAG> -- CPU is running -- CPU_WriteMem(4 bytes @ 0xE000EDF0) -- CPU is running -- CPU_WriteMem(4 bytes @ 0xE000EDFC) -- CPU is running -- CPU_WriteMem(4 bytes @ 0xE000ED0C) -- CPU is running -- CPU_ReadMem(4 bytes @ 0xE000EDF0) -- CPU is running -- CPU_ReadMem(4 bytes @ 0xE000EDF0) -- CPU is running
 -- CPU_WriteMem(4 bytes @ 0xE000EDF0) -- CPU is running -- CPU_WriteMem(4 bytes @ 0xE000EDFC) -- CPU is running -- CPU_ReadMem(4 bytes @ 0xE000EDF0) >0x90 JTAG> >0x40 JTAG> >0x30 JTAG> >0x40 JTAG> >0x50 JTAG> >0x40 JTAG> -- CPU_WriteMem(4 bytes @ 0xE000EDFC) -- CPU_WriteMem(4 bytes @ 0xE0001028) -- CPU_WriteMem(4 bytes @ 0xE0001038) -- CPU_WriteMem(4 bytes @ 0xE0001048) -- CPU_WriteMem(4 bytes @ 0xE0001058) -- CPU_WriteMem(4 bytes @ 0xE0002000) (0054ms, 0123ms total)
T2A78 009:637 JLINK_Halt()  returns 0x00 (0000ms, 0123ms total)
T2A78 009:637 JLINK_ReadMemU32(0xE000EDF0, 0x0001 Items, ...) -- CPU_ReadMem(4 bytes @ 0xE000EDF0) -- Data:  03 00 03 00  returns 0x01 (0001ms, 0124ms total)
T2A78 009:638 JLINK_WriteU32(0xE000EDF0, 0xA05F0003) -- CPU_WriteMem(4 bytes @ 0xE000EDF0)  returns 0x00 (0000ms, 0124ms total)
T2A78 009:638 JLINK_WriteU32(0xE000EDFC, 0x01000000) -- CPU_WriteMem(4 bytes @ 0xE000EDFC)  returns 0x00 (0001ms, 0125ms total)
T2A78 009:650 JLINK_GetHWStatus(...)  returns 0x00 (0000ms, 0125ms total)
T2A78 009:657 JLINK_GetNumBPUnits(Type = 0xFFFFFF00)  returns 0x06 (0000ms, 0125ms total)
T2A78 009:657 JLINK_GetNumBPUnits(Type = 0xF0)  returns 0x2000 (0000ms, 0125ms total)
T2A78 009:657 JLINK_GetNumWPUnits()  returns 0x04 (0000ms, 0125ms total)
T2A78 009:665 JLINK_GetSpeed()  returns 0x12C0 (0000ms, 0125ms total)
T2A78 009:677 JLINK_ReadMemU32(0xE000E004, 0x0001 Items, ...) -- CPU_ReadMem(4 bytes @ 0xE000E004) -- Data:  01 00 00 00  returns 0x01 (0001ms, 0126ms total)
T2A78 009:678 JLINK_ReadMemU32(0xE000E004, 0x0001 Items, ...) -- CPU_ReadMem(4 bytes @ 0xE000E004) -- Data:  01 00 00 00  returns 0x01 (0001ms, 0127ms total)
T2A78 009:679 JLINK_WriteMemEx(0xE0001000, 0x001C Bytes, ..., AccessWidth = 33554436) -- Data:  01 00 00 00 00 00 00 00 00 00 00 00 00 00 00 00 ... -- CPU_WriteMem(28 bytes @ 0xE0001000)  returns 0x1C (0000ms, 0127ms total)
T2A78 009:679 JLINK_Halt()  returns 0x00 (0000ms, 0127ms total)
T2A78 009:679 JLINK_IsHalted()  returns TRUE (0000ms, 0127ms total)
T2A78 009:681 JLINK_WriteMem(0x20000000, 0x0164 Bytes, ...) -- Data:  00 BE 0A E0 0D 78 2D 06 68 40 08 24 40 00 00 D3 ... -- CPU_WriteMem(356 bytes @ 0x20000000)  returns 0x164 (0004ms, 0131ms total)
T2A78 009:685 JLINK_WriteReg(R0, 0x08000000)  returns 0x00 (0000ms, 0131ms total)
T2A78 009:685 JLINK_WriteReg(R1, 0x00B71B00)  returns 0x00 (0000ms, 0131ms total)
T2A78 009:685 JLINK_WriteReg(R2, 0x00000001)  returns 0x00 (0000ms, 0131ms total)
T2A78 009:685 JLINK_WriteReg(R3, 0x00000000)  returns 0x00 (0000ms, 0131ms total)
T2A78 009:685 JLINK_WriteReg(R4, 0x00000000)  returns 0x00 (0000ms, 0131ms total)
T2A78 009:685 JLINK_WriteReg(R5, 0x00000000)  returns 0x00 (0000ms, 0131ms total)
T2A78 009:685 JLINK_WriteReg(R6, 0x00000000)  returns 0x00 (0000ms, 0131ms total)
T2A78 009:685 JLINK_WriteReg(R7, 0x00000000)  returns 0x00 (0000ms, 0131ms total)
T2A78 009:685 JLINK_WriteReg(R8, 0x00000000)  returns 0x00 (0000ms, 0131ms total)
T2A78 009:685 JLINK_WriteReg(R9, 0x20000160)  returns 0x00 (0000ms, 0131ms total)
T2A78 009:685 JLINK_WriteReg(R10, 0x00000000)  returns 0x00 (0000ms, 0131ms total)
T2A78 009:685 JLINK_WriteReg(R11, 0x00000000)  returns 0x00 (0000ms, 0131ms total)
T2A78 009:685 JLINK_WriteReg(R12, 0x00000000)  returns 0x00 (0000ms, 0131ms total)
T2A78 009:685 JLINK_WriteReg(R13, 0x20001000)  returns 0x00 (0000ms, 0131ms total)
T2A78 009:685 JLINK_WriteReg(R14, 0x20000001)  returns 0x00 (0000ms, 0131ms total)
T2A78 009:685 JLINK_WriteReg(R15, 0x20000038)  returns 0x00 (0000ms, 0131ms total)
T2A78 009:685 JLINK_WriteReg(XPSR, 0x01000000)  returns 0x00 (0000ms, 0131ms total)
T2A78 009:685 JLINK_WriteReg(MSP, 0x20001000)  returns 0x00 (0000ms, 0131ms total)
T2A78 009:685 JLINK_WriteReg(PSP, 0x20001000)  returns 0x00 (0000ms, 0131ms total)
T2A78 009:685 JLINK_WriteReg(CFBP, 0x00000000)  returns 0x00 (0000ms, 0131ms total)
T2A78 009:685 JLINK_SetBPEx(Addr = 0x20000000, Type = 0xFFFFFFF2) -- CPU_ReadMem(2 bytes @ 0x20000000)  returns 0x00000001 (0001ms, 0132ms total)
T2A78 009:686 JLINK_Go() -- CPU_WriteMem(2 bytes @ 0x20000000) -- CPU_WriteMem(4 bytes @ 0xE0002008) -- CPU_WriteMem(4 bytes @ 0xE000200C) -- CPU_WriteMem(4 bytes @ 0xE0002010) -- CPU_WriteMem(4 bytes @ 0xE0002014) -- CPU_WriteMem(4 bytes @ 0xE0002018) -- CPU_WriteMem(4 bytes @ 0xE000201C) (0003ms, 0135ms total)
T2A78 009:689 JLINK_IsHalted() -- CPU_ReadMem(2 bytes @ 0x20000000)  returns TRUE (0003ms, 0138ms total)
T2A78 009:692 JLINK_ReadReg(R15)  returns 0x20000000 (0000ms, 0135ms total)
T2A78 009:692 JLINK_ClrBPEx(BPHandle = 0x00000001)  returns 0x00 (0000ms, 0135ms total)
T2A78 009:692 JLINK_ReadReg(R0)  returns 0x00000000 (0000ms, 0135ms total)
T2A78 009:693 JLINK_WriteReg(R0, 0x08000000)  returns 0x00 (0000ms, 0135ms total)
T2A78 009:693 JLINK_WriteReg(R1, 0x00000800)  returns 0x00 (0000ms, 0135ms total)
T2A78 009:693 JLINK_WriteReg(R2, 0x000000FF)  returns 0x00 (0000ms, 0135ms total)
T2A78 009:693 JLINK_WriteReg(R3, 0x00000000)  returns 0x00 (0000ms, 0135ms total)
T2A78 009:693 JLINK_WriteReg(R4, 0x00000000)  returns 0x00 (0000ms, 0135ms total)
T2A78 009:693 JLINK_WriteReg(R5, 0x00000000)  returns 0x00 (0000ms, 0135ms total)
T2A78 009:693 JLINK_WriteReg(R6, 0x00000000)  returns 0x00 (0000ms, 0135ms total)
T2A78 009:693 JLINK_WriteReg(R7, 0x00000000)  returns 0x00 (0000ms, 0135ms total)
T2A78 009:693 JLINK_WriteReg(R8, 0x00000000)  returns 0x00 (0000ms, 0135ms total)
T2A78 009:693 JLINK_WriteReg(R9, 0x20000160)  returns 0x00 (0000ms, 0135ms total)
T2A78 009:693 JLINK_WriteReg(R10, 0x00000000)  returns 0x00 (0000ms, 0135ms total)
T2A78 009:693 JLINK_WriteReg(R11, 0x00000000)  returns 0x00 (0000ms, 0135ms total)
T2A78 009:693 JLINK_WriteReg(R12, 0x00000000)  returns 0x00 (0000ms, 0135ms total)
T2A78 009:693 JLINK_WriteReg(R13, 0x20001000)  returns 0x00 (0000ms, 0135ms total)
T2A78 009:693 JLINK_WriteReg(R14, 0x20000001)  returns 0x00 (0000ms, 0135ms total)
T2A78 009:693 JLINK_WriteReg(R15, 0x20000020)  returns 0x00 (0000ms, 0135ms total)
T2A78 009:693 JLINK_WriteReg(XPSR, 0x01000000)  returns 0x00 (0000ms, 0135ms total)
T2A78 009:693 JLINK_WriteReg(MSP, 0x20001000)  returns 0x00 (0000ms, 0135ms total)
T2A78 009:693 JLINK_WriteReg(PSP, 0x20001000)  returns 0x00 (0000ms, 0135ms total)
T2A78 009:693 JLINK_WriteReg(CFBP, 0x00000000)  returns 0x00 (0000ms, 0135ms total)
T2A78 009:693 JLINK_SetBPEx(Addr = 0x20000000, Type = 0xFFFFFFF2)  returns 0x00000002 (0000ms, 0135ms total)
T2A78 009:693 JLINK_Go() -- CPU_WriteMem(4 bytes @ 0xE0002008) -- CPU_WriteMem(4 bytes @ 0xE000200C) -- CPU_WriteMem(4 bytes @ 0xE0002010) -- CPU_WriteMem(4 bytes @ 0xE0002014) -- CPU_WriteMem(4 bytes @ 0xE0002018) -- CPU_WriteMem(4 bytes @ 0xE000201C) (0003ms, 0138ms total)
T2A78 009:696 JLINK_IsHalted() -- CPU_ReadMem(2 bytes @ 0x20000000)  returns TRUE (0004ms, 0142ms total)
T2A78 009:700 JLINK_ReadReg(R15)  returns 0x20000000 (0000ms, 0138ms total)
T2A78 009:700 JLINK_ClrBPEx(BPHandle = 0x00000002)  returns 0x00 (0000ms, 0138ms total)
T2A78 009:700 JLINK_ReadReg(R0)  returns 0x00000001 (0000ms, 0138ms total)
T2A78 009:700 JLINK_WriteReg(R0, 0x08000000)  returns 0x00 (0000ms, 0138ms total)
T2A78 009:700 JLINK_WriteReg(R1, 0x00000800)  returns 0x00 (0000ms, 0138ms total)
T2A78 009:700 JLINK_WriteReg(R2, 0x000000FF)  returns 0x00 (0000ms, 0138ms total)
T2A78 009:700 JLINK_WriteReg(R3, 0x00000000)  returns 0x00 (0000ms, 0138ms total)
T2A78 009:700 JLINK_WriteReg(R4, 0x00000000)  returns 0x00 (0000ms, 0138ms total)
T2A78 009:700 JLINK_WriteReg(R5, 0x00000000)  returns 0x00 (0000ms, 0138ms total)
T2A78 009:700 JLINK_WriteReg(R6, 0x00000000)  returns 0x00 (0000ms, 0138ms total)
T2A78 009:700 JLINK_WriteReg(R7, 0x00000000)  returns 0x00 (0000ms, 0138ms total)
T2A78 009:700 JLINK_WriteReg(R8, 0x00000000)  returns 0x00 (0000ms, 0138ms total)
T2A78 009:700 JLINK_WriteReg(R9, 0x20000160)  returns 0x00 (0000ms, 0138ms total)
T2A78 009:700 JLINK_WriteReg(R10, 0x00000000)  returns 0x00 (0000ms, 0138ms total)
T2A78 009:700 JLINK_WriteReg(R11, 0x00000000)  returns 0x00 (0000ms, 0138ms total)
T2A78 009:700 JLINK_WriteReg(R12, 0x00000000)  returns 0x00 (0000ms, 0138ms total)
T2A78 009:700 JLINK_WriteReg(R13, 0x20001000)  returns 0x00 (0000ms, 0138ms total)
T2A78 009:700 JLINK_WriteReg(R14, 0x20000001)  returns 0x00 (0000ms, 0138ms total)
T2A78 009:700 JLINK_WriteReg(R15, 0x200000B6)  returns 0x00 (0000ms, 0138ms total)
T2A78 009:700 JLINK_WriteReg(XPSR, 0x01000000)  returns 0x00 (0000ms, 0138ms total)
T2A78 009:700 JLINK_WriteReg(MSP, 0x20001000)  returns 0x00 (0000ms, 0138ms total)
T2A78 009:700 JLINK_WriteReg(PSP, 0x20001000)  returns 0x00 (0000ms, 0138ms total)
T2A78 009:700 JLINK_WriteReg(CFBP, 0x00000000)  returns 0x00 (0000ms, 0138ms total)
T2A78 009:700 JLINK_SetBPEx(Addr = 0x20000000, Type = 0xFFFFFFF2)  returns 0x00000003 (0000ms, 0138ms total)
T2A78 009:700 JLINK_Go() -- CPU_WriteMem(4 bytes @ 0xE0002008) -- CPU_WriteMem(4 bytes @ 0xE000200C) -- CPU_WriteMem(4 bytes @ 0xE0002010) -- CPU_WriteMem(4 bytes @ 0xE0002014) -- CPU_WriteMem(4 bytes @ 0xE0002018) -- CPU_WriteMem(4 bytes @ 0xE000201C) (0003ms, 0141ms total)
T2A78 009:703 JLINK_IsHalted()  returns FALSE (0000ms, 0141ms total)
T2A78 009:857 JLINK_IsHalted() -- CPU_ReadMem(2 bytes @ 0x20000000)  returns TRUE (0003ms, 0144ms total)
T2A78 009:860 JLINK_ReadReg(R15)  returns 0x20000000 (0000ms, 0141ms total)
T2A78 009:860 JLINK_ClrBPEx(BPHandle = 0x00000003)  returns 0x00 (0000ms, 0141ms total)
T2A78 009:860 JLINK_ReadReg(R0)  returns 0x00000000 (0000ms, 0141ms total)
T2A78 009:860 JLINK_WriteReg(R0, 0x00000001)  returns 0x00 (0000ms, 0141ms total)
T2A78 009:860 JLINK_WriteReg(R1, 0x00000800)  returns 0x00 (0000ms, 0141ms total)
T2A78 009:860 JLINK_WriteReg(R2, 0x000000FF)  returns 0x00 (0000ms, 0141ms total)
T2A78 009:860 JLINK_WriteReg(R3, 0x00000000)  returns 0x00 (0000ms, 0141ms total)
T2A78 009:860 JLINK_WriteReg(R4, 0x00000000)  returns 0x00 (0000ms, 0141ms total)
T2A78 009:860 JLINK_WriteReg(R5, 0x00000000)  returns 0x00 (0000ms, 0141ms total)
T2A78 009:860 JLINK_WriteReg(R6, 0x00000000)  returns 0x00 (0000ms, 0141ms total)
T2A78 009:860 JLINK_WriteReg(R7, 0x00000000)  returns 0x00 (0000ms, 0141ms total)
T2A78 009:860 JLINK_WriteReg(R8, 0x00000000)  returns 0x00 (0000ms, 0141ms total)
T2A78 009:860 JLINK_WriteReg(R9, 0x20000160)  returns 0x00 (0000ms, 0141ms total)
T2A78 009:860 JLINK_WriteReg(R10, 0x00000000)  returns 0x00 (0000ms, 0141ms total)
T2A78 009:860 JLINK_WriteReg(R11, 0x00000000)  returns 0x00 (0000ms, 0141ms total)
T2A78 009:860 JLINK_WriteReg(R12, 0x00000000)  returns 0x00 (0000ms, 0141ms total)
T2A78 009:860 JLINK_WriteReg(R13, 0x20001000)  returns 0x00 (0000ms, 0141ms total)
T2A78 009:860 JLINK_WriteReg(R14, 0x20000001)  returns 0x00 (0000ms, 0141ms total)
T2A78 009:860 JLINK_WriteReg(R15, 0x2000006A)  returns 0x00 (0000ms, 0141ms total)
T2A78 009:860 JLINK_WriteReg(XPSR, 0x01000000)  returns 0x00 (0000ms, 0141ms total)
T2A78 009:861 JLINK_WriteReg(MSP, 0x20001000)  returns 0x00 (0000ms, 0142ms total)
T2A78 009:861 JLINK_WriteReg(PSP, 0x20001000)  returns 0x00 (0000ms, 0142ms total)
T2A78 009:861 JLINK_WriteReg(CFBP, 0x00000000)  returns 0x00 (0000ms, 0142ms total)
T2A78 009:861 JLINK_SetBPEx(Addr = 0x20000000, Type = 0xFFFFFFF2)  returns 0x00000004 (0000ms, 0142ms total)
T2A78 009:861 JLINK_Go() -- CPU_WriteMem(4 bytes @ 0xE0002008) -- CPU_WriteMem(4 bytes @ 0xE000200C) -- CPU_WriteMem(4 bytes @ 0xE0002010) -- CPU_WriteMem(4 bytes @ 0xE0002014) -- CPU_WriteMem(4 bytes @ 0xE0002018) -- CPU_WriteMem(4 bytes @ 0xE000201C) (0003ms, 0145ms total)
T2A78 009:864 JLINK_IsHalted() -- CPU_ReadMem(2 bytes @ 0x20000000)  returns TRUE (0003ms, 0148ms total)
T2A78 009:867 JLINK_ReadReg(R15)  returns 0x20000000 (0000ms, 0145ms total)
T2A78 009:867 JLINK_ClrBPEx(BPHandle = 0x00000004)  returns 0x00 (0000ms, 0145ms total)
T2A78 009:867 JLINK_ReadReg(R0)  returns 0x00000000 (0000ms, 0145ms total)
T2A78 009:925 JLINK_WriteMem(0x20000000, 0x0164 Bytes, ...) -- Data:  00 BE 0A E0 0D 78 2D 06 68 40 08 24 40 00 00 D3 ... -- CPU_WriteMem(356 bytes @ 0x20000000)  returns 0x164 (0003ms, 0148ms total)
T2A78 009:928 JLINK_WriteReg(R0, 0x08000000)  returns 0x00 (0000ms, 0148ms total)
T2A78 009:928 JLINK_WriteReg(R1, 0x00B71B00)  returns 0x00 (0000ms, 0148ms total)
T2A78 009:928 JLINK_WriteReg(R2, 0x00000002)  returns 0x00 (0000ms, 0148ms total)
T2A78 009:928 JLINK_WriteReg(R3, 0x00000000)  returns 0x00 (0000ms, 0148ms total)
T2A78 009:928 JLINK_WriteReg(R4, 0x00000000)  returns 0x00 (0000ms, 0148ms total)
T2A78 009:928 JLINK_WriteReg(R5, 0x00000000)  returns 0x00 (0000ms, 0148ms total)
T2A78 009:928 JLINK_WriteReg(R6, 0x00000000)  returns 0x00 (0000ms, 0148ms total)
T2A78 009:928 JLINK_WriteReg(R7, 0x00000000)  returns 0x00 (0000ms, 0148ms total)
T2A78 009:928 JLINK_WriteReg(R8, 0x00000000)  returns 0x00 (0000ms, 0148ms total)
T2A78 009:928 JLINK_WriteReg(R9, 0x20000160)  returns 0x00 (0000ms, 0148ms total)
T2A78 009:928 JLINK_WriteReg(R10, 0x00000000)  returns 0x00 (0000ms, 0148ms total)
T2A78 009:928 JLINK_WriteReg(R11, 0x00000000)  returns 0x00 (0000ms, 0148ms total)
T2A78 009:928 JLINK_WriteReg(R12, 0x00000000)  returns 0x00 (0000ms, 0148ms total)
T2A78 009:928 JLINK_WriteReg(R13, 0x20001000)  returns 0x00 (0000ms, 0148ms total)
T2A78 009:928 JLINK_WriteReg(R14, 0x20000001)  returns 0x00 (0000ms, 0148ms total)
T2A78 009:928 JLINK_WriteReg(R15, 0x20000038)  returns 0x00 (0000ms, 0148ms total)
T2A78 009:928 JLINK_WriteReg(XPSR, 0x01000000)  returns 0x00 (0000ms, 0148ms total)
T2A78 009:928 JLINK_WriteReg(MSP, 0x20001000)  returns 0x00 (0000ms, 0148ms total)
T2A78 009:928 JLINK_WriteReg(PSP, 0x20001000)  returns 0x00 (0000ms, 0148ms total)
T2A78 009:928 JLINK_WriteReg(CFBP, 0x00000000)  returns 0x00 (0000ms, 0148ms total)
T2A78 009:928 JLINK_SetBPEx(Addr = 0x20000000, Type = 0xFFFFFFF2) -- CPU_ReadMem(2 bytes @ 0x20000000)  returns 0x00000005 (0001ms, 0149ms total)
T2A78 009:929 JLINK_Go() -- CPU_WriteMem(2 bytes @ 0x20000000) -- CPU_WriteMem(4 bytes @ 0xE0002008) -- CPU_WriteMem(4 bytes @ 0xE000200C) -- CPU_WriteMem(4 bytes @ 0xE0002010) -- CPU_WriteMem(4 bytes @ 0xE0002014) -- CPU_WriteMem(4 bytes @ 0xE0002018) -- CPU_WriteMem(4 bytes @ 0xE000201C) (0003ms, 0152ms total)
T2A78 009:932 JLINK_IsHalted() -- CPU_ReadMem(2 bytes @ 0x20000000)  returns TRUE (0004ms, 0156ms total)
T2A78 009:936 JLINK_ReadReg(R15)  returns 0x20000000 (0000ms, 0152ms total)
T2A78 009:936 JLINK_ClrBPEx(BPHandle = 0x00000005)  returns 0x00 (0000ms, 0152ms total)
T2A78 009:936 JLINK_ReadReg(R0)  returns 0x00000000 (0000ms, 0152ms total)
T2A78 009:936 JLINK_WriteMem(0x20000164, 0x029C Bytes, ...) -- Data:  68 06 00 20 CD 01 00 08 53 03 00 08 4F 03 00 08 ... -- CPU_WriteMem(668 bytes @ 0x20000164)  returns 0x29C (0005ms, 0157ms total)
T2A78 009:941 JLINK_WriteMem(0x20000400, 0x0164 Bytes, ...) -- Data:  00 00 00 20 2D E9 F0 41 00 22 CC 78 04 F0 0F 03 ... -- CPU_WriteMem(356 bytes @ 0x20000400)  returns 0x164 (0003ms, 0160ms total)
T2A78 009:944 JLINK_WriteReg(R0, 0x08000000)  returns 0x00 (0000ms, 0160ms total)
T2A78 009:944 JLINK_WriteReg(R1, 0x00000400)  returns 0x00 (0000ms, 0160ms total)
T2A78 009:944 JLINK_WriteReg(R2, 0x20000164)  returns 0x00 (0000ms, 0160ms total)
T2A78 009:944 JLINK_WriteReg(R3, 0x00000000)  returns 0x00 (0000ms, 0160ms total)
T2A78 009:944 JLINK_WriteReg(R4, 0x00000000)  returns 0x00 (0000ms, 0160ms total)
T2A78 009:944 JLINK_WriteReg(R5, 0x00000000)  returns 0x00 (0001ms, 0161ms total)
T2A78 009:945 JLINK_WriteReg(R6, 0x00000000)  returns 0x00 (0000ms, 0161ms total)
T2A78 009:945 JLINK_WriteReg(R7, 0x00000000)  returns 0x00 (0000ms, 0161ms total)
T2A78 009:945 JLINK_WriteReg(R8, 0x00000000)  returns 0x00 (0000ms, 0161ms total)
T2A78 009:945 JLINK_WriteReg(R9, 0x20000160)  returns 0x00 (0000ms, 0161ms total)
T2A78 009:945 JLINK_WriteReg(R10, 0x00000000)  returns 0x00 (0000ms, 0161ms total)
T2A78 009:945 JLINK_WriteReg(R11, 0x00000000)  returns 0x00 (0000ms, 0161ms total)
T2A78 009:945 JLINK_WriteReg(R12, 0x00000000)  returns 0x00 (0000ms, 0161ms total)
T2A78 009:945 JLINK_WriteReg(R13, 0x20001000)  returns 0x00 (0000ms, 0161ms total)
T2A78 009:945 JLINK_WriteReg(R14, 0x20000001)  returns 0x00 (0000ms, 0161ms total)
T2A78 009:945 JLINK_WriteReg(R15, 0x200000F4)  returns 0x00 (0000ms, 0161ms total)
T2A78 009:945 JLINK_WriteReg(XPSR, 0x01000000)  returns 0x00 (0000ms, 0161ms total)
T2A78 009:945 JLINK_WriteReg(MSP, 0x20001000)  returns 0x00 (0000ms, 0161ms total)
T2A78 009:945 JLINK_WriteReg(PSP, 0x20001000)  returns 0x00 (0000ms, 0161ms total)
T2A78 009:945 JLINK_WriteReg(CFBP, 0x00000000)  returns 0x00 (0000ms, 0161ms total)
T2A78 009:945 JLINK_SetBPEx(Addr = 0x20000000, Type = 0xFFFFFFF2)  returns 0x00000006 (0000ms, 0161ms total)
T2A78 009:945 JLINK_Go() -- CPU_WriteMem(4 bytes @ 0xE0002008) -- CPU_WriteMem(4 bytes @ 0xE000200C) -- CPU_WriteMem(4 bytes @ 0xE0002010) -- CPU_WriteMem(4 bytes @ 0xE0002014) -- CPU_WriteMem(4 bytes @ 0xE0002018) -- CPU_WriteMem(4 bytes @ 0xE000201C) (0003ms, 0164ms total)
T2A78 009:948 JLINK_IsHalted()  returns FALSE (0000ms, 0164ms total)
T2A78 010:092 JLINK_IsHalted() -- CPU_ReadMem(2 bytes @ 0x20000000)  returns TRUE (0003ms, 0167ms total)
T2A78 010:095 JLINK_ReadReg(R15)  returns 0x20000000 (0000ms, 0164ms total)
T2A78 010:095 JLINK_ClrBPEx(BPHandle = 0x00000006)  returns 0x00 (0000ms, 0164ms total)
T2A78 010:095 JLINK_ReadReg(R0)  returns 0x00000000 (0000ms, 0164ms total)
T2A78 010:095 JLINK_WriteMem(0x20000164, 0x029C Bytes, ...) -- Data:  01 68 89 01 FC D5 41 68 21 F0 03 01 41 60 41 68 ... -- CPU_WriteMem(668 bytes @ 0x20000164)  returns 0x29C (0006ms, 0170ms total)
T2A78 010:101 JLINK_WriteMem(0x20000400, 0x0164 Bytes, ...) -- Data:  FF FF FF FF FF FF FF FF FF FF FF FF FF FF FF FF ... -- CPU_WriteMem(356 bytes @ 0x20000400)  returns 0x164 (0003ms, 0173ms total)
T2A78 010:104 JLINK_WriteReg(R0, 0x08000400)  returns 0x00 (0000ms, 0173ms total)
T2A78 010:104 JLINK_WriteReg(R1, 0x000000FC)  returns 0x00 (0000ms, 0173ms total)
T2A78 010:104 JLINK_WriteReg(R2, 0x20000164)  returns 0x00 (0000ms, 0173ms total)
T2A78 010:104 JLINK_WriteReg(R3, 0x00000000)  returns 0x00 (0000ms, 0173ms total)
T2A78 010:104 JLINK_WriteReg(R4, 0x00000000)  returns 0x00 (0000ms, 0173ms total)
T2A78 010:104 JLINK_WriteReg(R5, 0x00000000)  returns 0x00 (0000ms, 0173ms total)
T2A78 010:104 JLINK_WriteReg(R6, 0x00000000)  returns 0x00 (0000ms, 0173ms total)
T2A78 010:104 JLINK_WriteReg(R7, 0x00000000)  returns 0x00 (0000ms, 0173ms total)
T2A78 010:104 JLINK_WriteReg(R8, 0x00000000)  returns 0x00 (0000ms, 0173ms total)
T2A78 010:104 JLINK_WriteReg(R9, 0x20000160)  returns 0x00 (0000ms, 0173ms total)
T2A78 010:104 JLINK_WriteReg(R10, 0x00000000)  returns 0x00 (0000ms, 0173ms total)
T2A78 010:104 JLINK_WriteReg(R11, 0x00000000)  returns 0x00 (0000ms, 0173ms total)
T2A78 010:104 JLINK_WriteReg(R12, 0x00000000)  returns 0x00 (0000ms, 0173ms total)
T2A78 010:104 JLINK_WriteReg(R13, 0x20001000)  returns 0x00 (0000ms, 0173ms total)
T2A78 010:104 JLINK_WriteReg(R14, 0x20000001)  returns 0x00 (0000ms, 0173ms total)
T2A78 010:104 JLINK_WriteReg(R15, 0x200000F4)  returns 0x00 (0000ms, 0173ms total)
T2A78 010:104 JLINK_WriteReg(XPSR, 0x01000000)  returns 0x00 (0000ms, 0173ms total)
T2A78 010:104 JLINK_WriteReg(MSP, 0x20001000)  returns 0x00 (0000ms, 0173ms total)
T2A78 010:104 JLINK_WriteReg(PSP, 0x20001000)  returns 0x00 (0000ms, 0173ms total)
T2A78 010:104 JLINK_WriteReg(CFBP, 0x00000000)  returns 0x00 (0000ms, 0173ms total)
T2A78 010:104 JLINK_SetBPEx(Addr = 0x20000000, Type = 0xFFFFFFF2)  returns 0x00000007 (0000ms, 0173ms total)
T2A78 010:104 JLINK_Go() -- CPU_WriteMem(4 bytes @ 0xE0002008) -- CPU_WriteMem(4 bytes @ 0xE000200C) -- CPU_WriteMem(4 bytes @ 0xE0002010) -- CPU_WriteMem(4 bytes @ 0xE0002014) -- CPU_WriteMem(4 bytes @ 0xE0002018) -- CPU_WriteMem(4 bytes @ 0xE000201C) (0003ms, 0176ms total)
T2A78 010:107 JLINK_IsHalted()  returns FALSE (0001ms, 0177ms total)
T2A78 010:239 JLINK_IsHalted() -- CPU_ReadMem(2 bytes @ 0x20000000)  returns TRUE (0003ms, 0179ms total)
T2A78 010:242 JLINK_ReadReg(R15)  returns 0x20000000 (0000ms, 0176ms total)
T2A78 010:242 JLINK_ClrBPEx(BPHandle = 0x00000007)  returns 0x00 (0000ms, 0176ms total)
T2A78 010:242 JLINK_ReadReg(R0)  returns 0x00000000 (0000ms, 0176ms total)
T2A78 010:242 JLINK_WriteReg(R0, 0x00000002)  returns 0x00 (0000ms, 0176ms total)
T2A78 010:242 JLINK_WriteReg(R1, 0x000000FC)  returns 0x00 (0000ms, 0176ms total)
T2A78 010:242 JLINK_WriteReg(R2, 0x20000164)  returns 0x00 (0000ms, 0176ms total)
T2A78 010:242 JLINK_WriteReg(R3, 0x00000000)  returns 0x00 (0000ms, 0176ms total)
T2A78 010:242 JLINK_WriteReg(R4, 0x00000000)  returns 0x00 (0000ms, 0176ms total)
T2A78 010:242 JLINK_WriteReg(R5, 0x00000000)  returns 0x00 (0000ms, 0176ms total)
T2A78 010:242 JLINK_WriteReg(R6, 0x00000000)  returns 0x00 (0000ms, 0176ms total)
T2A78 010:242 JLINK_WriteReg(R7, 0x00000000)  returns 0x00 (0000ms, 0176ms total)
T2A78 010:242 JLINK_WriteReg(R8, 0x00000000)  returns 0x00 (0000ms, 0176ms total)
T2A78 010:242 JLINK_WriteReg(R9, 0x20000160)  returns 0x00 (0000ms, 0176ms total)
T2A78 010:242 JLINK_WriteReg(R10, 0x00000000)  returns 0x00 (0000ms, 0176ms total)
T2A78 010:242 JLINK_WriteReg(R11, 0x00000000)  returns 0x00 (0000ms, 0176ms total)
T2A78 010:242 JLINK_WriteReg(R12, 0x00000000)  returns 0x00 (0000ms, 0176ms total)
T2A78 010:242 JLINK_WriteReg(R13, 0x20001000)  returns 0x00 (0000ms, 0176ms total)
T2A78 010:242 JLINK_WriteReg(R14, 0x20000001)  returns 0x00 (0000ms, 0176ms total)
T2A78 010:242 JLINK_WriteReg(R15, 0x2000006A)  returns 0x00 (0000ms, 0176ms total)
T2A78 010:242 JLINK_WriteReg(XPSR, 0x01000000)  returns 0x00 (0000ms, 0176ms total)
T2A78 010:242 JLINK_WriteReg(MSP, 0x20001000)  returns 0x00 (0000ms, 0176ms total)
T2A78 010:242 JLINK_WriteReg(PSP, 0x20001000)  returns 0x00 (0000ms, 0176ms total)
T2A78 010:242 JLINK_WriteReg(CFBP, 0x00000000)  returns 0x00 (0000ms, 0176ms total)
T2A78 010:242 JLINK_SetBPEx(Addr = 0x20000000, Type = 0xFFFFFFF2)  returns 0x00000008 (0000ms, 0176ms total)
T2A78 010:242 JLINK_Go() -- CPU_WriteMem(4 bytes @ 0xE0002008) -- CPU_WriteMem(4 bytes @ 0xE000200C) -- CPU_WriteMem(4 bytes @ 0xE0002010) -- CPU_WriteMem(4 bytes @ 0xE0002014) -- CPU_WriteMem(4 bytes @ 0xE0002018) -- CPU_WriteMem(4 bytes @ 0xE000201C) (0004ms, 0180ms total)
T2A78 010:246 JLINK_IsHalted() -- CPU_ReadMem(2 bytes @ 0x20000000)  returns TRUE (0002ms, 0182ms total)
T2A78 010:248 JLINK_ReadReg(R15)  returns 0x20000000 (0000ms, 0180ms total)
T2A78 010:248 JLINK_ClrBPEx(BPHandle = 0x00000008)  returns 0x00 (0000ms, 0180ms total)
T2A78 010:248 JLINK_ReadReg(R0)  returns 0x00000000 (0000ms, 0180ms total)
T2A78 010:306 JLINK_WriteMem(0x20000000, 0x0164 Bytes, ...) -- Data:  00 BE 0A E0 0D 78 2D 06 68 40 08 24 40 00 00 D3 ... -- CPU_WriteMem(356 bytes @ 0x20000000)  returns 0x164 (0003ms, 0183ms total)
T2A78 010:309 JLINK_WriteReg(R0, 0x08000000)  returns 0x00 (0000ms, 0183ms total)
T2A78 010:309 JLINK_WriteReg(R1, 0x00B71B00)  returns 0x00 (0000ms, 0183ms total)
T2A78 010:309 JLINK_WriteReg(R2, 0x00000003)  returns 0x00 (0000ms, 0183ms total)
T2A78 010:309 JLINK_WriteReg(R3, 0x00000000)  returns 0x00 (0000ms, 0183ms total)
T2A78 010:309 JLINK_WriteReg(R4, 0x00000000)  returns 0x00 (0000ms, 0183ms total)
T2A78 010:309 JLINK_WriteReg(R5, 0x00000000)  returns 0x00 (0000ms, 0183ms total)
T2A78 010:309 JLINK_WriteReg(R6, 0x00000000)  returns 0x00 (0000ms, 0183ms total)
T2A78 010:309 JLINK_WriteReg(R7, 0x00000000)  returns 0x00 (0000ms, 0183ms total)
T2A78 010:309 JLINK_WriteReg(R8, 0x00000000)  returns 0x00 (0000ms, 0183ms total)
T2A78 010:309 JLINK_WriteReg(R9, 0x20000160)  returns 0x00 (0000ms, 0183ms total)
T2A78 010:309 JLINK_WriteReg(R10, 0x00000000)  returns 0x00 (0000ms, 0183ms total)
T2A78 010:309 JLINK_WriteReg(R11, 0x00000000)  returns 0x00 (0000ms, 0183ms total)
T2A78 010:309 JLINK_WriteReg(R12, 0x00000000)  returns 0x00 (0000ms, 0183ms total)
T2A78 010:309 JLINK_WriteReg(R13, 0x20001000)  returns 0x00 (0000ms, 0183ms total)
T2A78 010:309 JLINK_WriteReg(R14, 0x20000001)  returns 0x00 (0000ms, 0183ms total)
T2A78 010:309 JLINK_WriteReg(R15, 0x20000038)  returns 0x00 (0000ms, 0183ms total)
T2A78 010:309 JLINK_WriteReg(XPSR, 0x01000000)  returns 0x00 (0000ms, 0183ms total)
T2A78 010:309 JLINK_WriteReg(MSP, 0x20001000)  returns 0x00 (0000ms, 0183ms total)
T2A78 010:309 JLINK_WriteReg(PSP, 0x20001000)  returns 0x00 (0000ms, 0183ms total)
T2A78 010:309 JLINK_WriteReg(CFBP, 0x00000000)  returns 0x00 (0000ms, 0183ms total)
T2A78 010:309 JLINK_SetBPEx(Addr = 0x20000000, Type = 0xFFFFFFF2) -- CPU_ReadMem(2 bytes @ 0x20000000)  returns 0x00000009 (0001ms, 0184ms total)
T2A78 010:310 JLINK_Go() -- CPU_WriteMem(2 bytes @ 0x20000000) -- CPU_WriteMem(4 bytes @ 0xE0002008) -- CPU_WriteMem(4 bytes @ 0xE000200C) -- CPU_WriteMem(4 bytes @ 0xE0002010) -- CPU_WriteMem(4 bytes @ 0xE0002014) -- CPU_WriteMem(4 bytes @ 0xE0002018) -- CPU_WriteMem(4 bytes @ 0xE000201C) (0003ms, 0187ms total)
T2A78 010:313 JLINK_IsHalted() -- CPU_ReadMem(2 bytes @ 0x20000000)  returns TRUE (0003ms, 0190ms total)
T2A78 010:316 JLINK_ReadReg(R15)  returns 0x20000000 (0000ms, 0187ms total)
T2A78 010:316 JLINK_ClrBPEx(BPHandle = 0x00000009)  returns 0x00 (0000ms, 0187ms total)
T2A78 010:316 JLINK_ReadReg(R0)  returns 0x00000000 (0000ms, 0187ms total)
T2A78 010:316 JLINK_WriteReg(R0, 0xFFFFFFFF)  returns 0x00 (0000ms, 0187ms total)
T2A78 010:316 JLINK_WriteReg(R1, 0x08000000)  returns 0x00 (0000ms, 0187ms total)
T2A78 010:316 JLINK_WriteReg(R2, 0x000004FC)  returns 0x00 (0000ms, 0187ms total)
T2A78 010:316 JLINK_WriteReg(R3, 0x04C11DB7)  returns 0x00 (0000ms, 0187ms total)
T2A78 010:316 JLINK_WriteReg(R4, 0x00000000)  returns 0x00 (0001ms, 0188ms total)
T2A78 010:317 JLINK_WriteReg(R5, 0x00000000)  returns 0x00 (0000ms, 0188ms total)
T2A78 010:317 JLINK_WriteReg(R6, 0x00000000)  returns 0x00 (0000ms, 0188ms total)
T2A78 010:317 JLINK_WriteReg(R7, 0x00000000)  returns 0x00 (0000ms, 0188ms total)
T2A78 010:317 JLINK_WriteReg(R8, 0x00000000)  returns 0x00 (0000ms, 0188ms total)
T2A78 010:317 JLINK_WriteReg(R9, 0x20000160)  returns 0x00 (0000ms, 0188ms total)
T2A78 010:317 JLINK_WriteReg(R10, 0x00000000)  returns 0x00 (0000ms, 0188ms total)
T2A78 010:317 JLINK_WriteReg(R11, 0x00000000)  returns 0x00 (0000ms, 0188ms total)
T2A78 010:317 JLINK_WriteReg(R12, 0x00000000)  returns 0x00 (0000ms, 0188ms total)
T2A78 010:317 JLINK_WriteReg(R13, 0x20001000)  returns 0x00 (0000ms, 0188ms total)
T2A78 010:317 JLINK_WriteReg(R14, 0x20000001)  returns 0x00 (0000ms, 0188ms total)
T2A78 010:317 JLINK_WriteReg(R15, 0x20000002)  returns 0x00 (0000ms, 0188ms total)
T2A78 010:317 JLINK_WriteReg(XPSR, 0x01000000)  returns 0x00 (0000ms, 0188ms total)
T2A78 010:317 JLINK_WriteReg(MSP, 0x20001000)  returns 0x00 (0000ms, 0188ms total)
T2A78 010:317 JLINK_WriteReg(PSP, 0x20001000)  returns 0x00 (0000ms, 0188ms total)
T2A78 010:317 JLINK_WriteReg(CFBP, 0x00000000)  returns 0x00 (0000ms, 0188ms total)
T2A78 010:317 JLINK_SetBPEx(Addr = 0x20000000, Type = 0xFFFFFFF2)  returns 0x0000000A (0000ms, 0188ms total)
T2A78 010:317 JLINK_Go() -- CPU_WriteMem(4 bytes @ 0xE0002008) -- CPU_WriteMem(4 bytes @ 0xE000200C) -- CPU_WriteMem(4 bytes @ 0xE0002010) -- CPU_WriteMem(4 bytes @ 0xE0002014) -- CPU_WriteMem(4 bytes @ 0xE0002018) -- CPU_WriteMem(4 bytes @ 0xE000201C) (0003ms, 0191ms total)
T2A78 010:320 JLINK_IsHalted()  returns FALSE (0000ms, 0191ms total)
T2A78 010:351 JLINK_IsHalted() -- CPU_ReadMem(2 bytes @ 0x20000000)  returns TRUE (0003ms, 0194ms total)
T2A78 010:354 JLINK_ReadReg(R15)  returns 0x20000000 (0000ms, 0191ms total)
T2A78 010:354 JLINK_ClrBPEx(BPHandle = 0x0000000A)  returns 0x00 (0000ms, 0191ms total)
T2A78 010:354 JLINK_ReadReg(R0)  returns 0x46F54399 (0000ms, 0191ms total)
T2A78 010:354 JLINK_WriteReg(R0, 0x00000003)  returns 0x00 (0000ms, 0191ms total)
T2A78 010:354 JLINK_WriteReg(R1, 0x08000000)  returns 0x00 (0000ms, 0191ms total)
T2A78 010:354 JLINK_WriteReg(R2, 0x000004FC)  returns 0x00 (0000ms, 0191ms total)
T2A78 010:354 JLINK_WriteReg(R3, 0x04C11DB7)  returns 0x00 (0000ms, 0191ms total)
T2A78 010:354 JLINK_WriteReg(R4, 0x00000000)  returns 0x00 (0000ms, 0191ms total)
T2A78 010:354 JLINK_WriteReg(R5, 0x00000000)  returns 0x00 (0000ms, 0191ms total)
T2A78 010:354 JLINK_WriteReg(R6, 0x00000000)  returns 0x00 (0000ms, 0191ms total)
T2A78 010:354 JLINK_WriteReg(R7, 0x00000000)  returns 0x00 (0000ms, 0191ms total)
T2A78 010:354 JLINK_WriteReg(R8, 0x00000000)  returns 0x00 (0000ms, 0191ms total)
T2A78 010:354 JLINK_WriteReg(R9, 0x20000160)  returns 0x00 (0000ms, 0191ms total)
T2A78 010:354 JLINK_WriteReg(R10, 0x00000000)  returns 0x00 (0000ms, 0191ms total)
T2A78 010:354 JLINK_WriteReg(R11, 0x00000000)  returns 0x00 (0000ms, 0191ms total)
T2A78 010:354 JLINK_WriteReg(R12, 0x00000000)  returns 0x00 (0000ms, 0191ms total)
T2A78 010:354 JLINK_WriteReg(R13, 0x20001000)  returns 0x00 (0000ms, 0191ms total)
T2A78 010:354 JLINK_WriteReg(R14, 0x20000001)  returns 0x00 (0000ms, 0191ms total)
T2A78 010:354 JLINK_WriteReg(R15, 0x2000006A)  returns 0x00 (0000ms, 0191ms total)
T2A78 010:354 JLINK_WriteReg(XPSR, 0x01000000)  returns 0x00 (0000ms, 0191ms total)
T2A78 010:354 JLINK_WriteReg(MSP, 0x20001000)  returns 0x00 (0000ms, 0191ms total)
T2A78 010:354 JLINK_WriteReg(PSP, 0x20001000)  returns 0x00 (0000ms, 0191ms total)
T2A78 010:354 JLINK_WriteReg(CFBP, 0x00000000)  returns 0x00 (0000ms, 0191ms total)
T2A78 010:354 JLINK_SetBPEx(Addr = 0x20000000, Type = 0xFFFFFFF2)  returns 0x0000000B (0000ms, 0191ms total)
T2A78 010:354 JLINK_Go() -- CPU_WriteMem(4 bytes @ 0xE0002008) -- CPU_WriteMem(4 bytes @ 0xE000200C) -- CPU_WriteMem(4 bytes @ 0xE0002010) -- CPU_WriteMem(4 bytes @ 0xE0002014) -- CPU_WriteMem(4 bytes @ 0xE0002018) -- CPU_WriteMem(4 bytes @ 0xE000201C) (0004ms, 0195ms total)
T2A78 010:358 JLINK_IsHalted() -- CPU_ReadMem(2 bytes @ 0x20000000)  returns TRUE (0003ms, 0198ms total)
T2A78 010:361 JLINK_ReadReg(R15)  returns 0x20000000 (0000ms, 0195ms total)
T2A78 010:361 JLINK_ClrBPEx(BPHandle = 0x0000000B)  returns 0x00 (0000ms, 0195ms total)
T2A78 010:361 JLINK_ReadReg(R0)  returns 0x00000000 (0000ms, 0195ms total)
T2A78 010:431 JLINK_WriteMemEx(0x20000000, 0x0002 Bytes, ..., AccessWidth = 33554432) -- Data:  FE E7Mis-aligned memory write: Address: 0x20000000, NumBytes: 2, Alignment: 2 (Halfword-aligned)
  ***** Mis-aligned memory write: Address: 0x20000000, NumBytes: 2, Alignment: 2 (Halfword-aligned) -- CPU_WriteMem(2 bytes @ 0x20000000)  returns 0x02 (0010ms, 0205ms total)
T2A78 010:444 JLINK_Close() -- CPU_WriteMem(4 bytes @ 0xE0002008) -- CPU_WriteMem(4 bytes @ 0xE000200C) -- CPU_WriteMem(4 bytes @ 0xE0002010) -- CPU_WriteMem(4 bytes @ 0xE0002014) -- CPU_WriteMem(4 bytes @ 0xE0002018) -- CPU_WriteMem(4 bytes @ 0xE000201C) >0x08 JTAG> (0437ms, 0642ms total)
T2A78 010:881 JLINK_Close() (0001ms, 0643ms total)
T2A78 012:017 JLINK_IsOpen()  returns 0x00 (0000ms, 0643ms total)
T2A78 012:017 JLINK_EMU_GetList(InterfaceMask = 0x00000001, MaxInfos = 0x00000010) [0]: USB, S/N: -1  returns 0x01 (0000ms, 0643ms total)
T2A78 012:017 JLINK_IsOpen()  returns 0x00 (0000ms, 0643ms total)
T2A78 012:017 JLINK_EMU_SelectByUSBSN(SerialNo = -1)  returns 0x00 (0000ms, 0643ms total)
T2A78 012:017 JLINK_EnableLog(...) (0000ms, 0643ms total)
T2A78 012:017 JLINK_SetWarnOutHandler(...) (0000ms, 0643ms total)
T2A78 012:017 JLINK_OpenEx(...)
Firmware: J-Link ARM V8 compiled Nov 28 2014 13:44:46
Hardware: V8.00
S/N: 158000503
Feature(s): RDI,FlashDL,FlashBP,JFlash,GDBFULL  returns O.K. (0010ms, 0653ms total)
T2A78 012:027 JLINK_GetEmuCaps()  returns 0xB9FF7BBF (0000ms, 0653ms total)
T2A78 012:027 JLINK_TIF_GetAvailable(...) (0000ms, 0653ms total)
T2A78 012:027 JLINK_SetErrorOutHandler(...) (0000ms, 0653ms total)
T2A78 012:027 JLINK_ExecCommand("ProjectFile = "E:\Code\STM32\GPIO\IOToggle\JLinkSettings.ini"", ...)  returns 0x00 (0000ms, 0653ms total)
T2A78 012:027 JLINK_ExecCommand("Device = STM32F103ZE", ...)
                JLINK_ExecCommand("map ram 0x20000000 - 0x2000FFFF", ...)  returns 0x00 (0001ms, 0001ms total)
                JLINK_AddMirrorAreaEx(Addr = 0x00000000, Size = 0x00000000) (0000ms, 0001ms total)
              Device "STM32F103ZE" selected (512 KB flash, 64 KB RAM).  returns 0x00 (0001ms, 0654ms total)
T2A78 012:028 JLINK_ExecCommand("DisableConnectionTimeout", ...)  returns 0x00 (0000ms, 0654ms total)
T2A78 012:028 JLINK_GetHardwareVersion()  returns 0x13880 (0000ms, 0654ms total)
T2A78 012:028 JLINK_GetDLLVersion()  returns 45012 (0000ms, 0654ms total)
T2A78 012:028 JLINK_GetFirmwareString(...) (0000ms, 0654ms total)
T2A78 012:028 JLINK_GetDLLVersion()  returns 45012 (0000ms, 0654ms total)
T2A78 012:028 JLINK_GetCompileDateTime() (0000ms, 0654ms total)
T2A78 012:028 JLINK_GetFirmwareString(...) (0000ms, 0654ms total)
T2A78 012:028 JLINK_GetHardwareVersion()  returns 0x13880 (0000ms, 0654ms total)
T2A78 012:028 JLINK_TIF_Select(JLINKARM_TIF_JTAG)  returns 0x00 (0000ms, 0654ms total)
T2A78 012:028 JLINK_SetSpeed(5000) (0000ms, 0654ms total)
T2A78 012:028 JLINK_GetIdData(...) >0x2F8 JTAG>TotalIRLen = 9, IRPrint = 0x0011 >0x30 JTAG> >0x210 JTAG> >0x40 JTAG> >0x40 JTAG> >0x40 JTAG> >0x30 JTAG> >0x40 JTAG> >0x40 JTAG> >0x40 JTAG> >0x40 JTAG> >0x40 JTAG> >0x40 JTAG> >0x40 JTAG> >0x40 JTAG> >0x2F8 JTAG>TotalIRLen = 9, IRPrint = 0x0011 >0x30 JTAG> >0x210 JTAG> >0x80 JTAG> >0x40 JTAG> >0x40 JTAG> >0x50 JTAG> >0x40 JTAG> >0x40 JTAG> >0x40 JTAG> >0x50 JTAG> >0x40 JTAG> >0x50 JTAG> >0x40 JTAG> >0x40 JTAG> >0x40 JTAG> >0x40 JTAG> >0x30 JTAG>
 >0x40 JTAG> >0x50 JTAG> >0x40 JTAG> >0x38 JTAG> >0x80 JTAG> >0x40 JTAG> >0x40 JTAG> >0x50 JTAG> >0x40 JTAG> >0x40 JTAG> >0x40 JTAG> >0x50 JTAG> >0x40 JTAG> >0x40 JTAG> >0x30 JTAG> >0x40 JTAG> >0x40 JTAG> >0x40 JTAG> >0x40 JTAG> >0x40 JTAG> >0x50 JTAG> >0x40 JTAG> >0x80 JTAG> >0x40 JTAG> >0x30 JTAG> >0x40 JTAG> >0x40 JTAG> >0x40 JTAG> >0x40 JTAG> >0x40 JTAG> >0x50 JTAG> >0x40 JTAG> >0x80 JTAG> >0x40 JTAG> >0x30 JTAG> >0x40 JTAG> >0x50 JTAG> >0x40 JTAG> >0x40 JTAG> >0x40 JTAG> >0x30 JTAG> >0x40 JTAG>
 >0x50 JTAG> >0x40 JTAG>Found Cortex-M3 r1p1, Little endian. >0x50 JTAG> >0x50 JTAG> >0x40 JTAG> >0x40 JTAG> >0x30 JTAG> >0x30 JTAG> >0x50 JTAG> >0x40 JTAG> >0x80 JTAG> >0x40 JTAG> >0x30 JTAG> >0x40 JTAG> >0x50 JTAG> >0x40 JTAG> >0x40 JTAG> >0x40 JTAG> >0x30 JTAG> >0x40 JTAG> >0x50 JTAG> >0x40 JTAG>TPIU fitted. >0x40 JTAG> >0x40 JTAG> >0x30 JTAG> >0x40 JTAG> >0x50 JTAG> >0x40 JTAG>ETM fitted. >0x40 JTAG> >0x40 JTAG> >0x30 JTAG> >0x40 JTAG> >0x50 JTAG> >0x40 JTAG> >0x40 JTAG> >0x40 JTAG> >0x30 JTAG>
 >0x40 JTAG> >0x50 JTAG> >0x40 JTAG>FPUnit: 6 code (BP) slots and 2 literal slots >0x40 JTAG> >0x40 JTAG> >0x30 JTAG> >0x40 JTAG> >0x50 JTAG> >0x40 JTAG> >0x40 JTAG> >0x40 JTAG> >0x30 JTAG> >0x40 JTAG> >0x50 JTAG> >0x40 JTAG> ScanLen=9 NumDevices=2 aId[0]=0x3BA00477 aIrRead[0]=0 aScanLen[0]=0 aScanRead[0]=0 (0032ms, 0686ms total)
T2A78 012:060 JLINK_JTAG_GetDeviceID(DeviceIndex = 0)  returns 0x3BA00477 (0000ms, 0686ms total)
T2A78 012:060 JLINK_JTAG_GetDeviceInfo(DeviceIndex = 0)  returns 0x00 (0000ms, 0686ms total)
T2A78 012:060 JLINK_JTAG_GetDeviceID(DeviceIndex = 1)  returns 0x6414041 (0000ms, 0686ms total)
T2A78 012:060 JLINK_JTAG_GetDeviceInfo(DeviceIndex = 1)  returns 0x00 (0000ms, 0686ms total)
T2A78 012:060 JLINK_GetDLLVersion()  returns 45012 (0000ms, 0686ms total)
T2A78 012:060 JLINK_CORE_GetFound()  returns 0x30000FF (0000ms, 0686ms total)
T2A78 012:060 JLINK_GetDebugInfo(0x100) -- Value=0xE00FF003  returns 0x00 (0000ms, 0686ms total)
T2A78 012:060 JLINK_GetDebugInfo(0x101)  returns 0xFFFFFFFF (0000ms, 0686ms total)
T2A78 012:060 JLINK_ReadMemEx(0xE0041FF0, 0x0010 Bytes, ..., AccessWidth = 33554436) -- CPU is running -- CPU_ReadMem(16 bytes @ 0xE0041FF0) -- Data:  0D 00 00 00 90 00 00 00 05 00 00 00 B1 00 00 00  returns 0x10 (0004ms, 0690ms total)
T2A78 012:064 JLINK_ReadMemEx(0xE0041FD0, 0x0020 Bytes, ..., AccessWidth = 33554436) -- CPU is running -- CPU_ReadMem(32 bytes @ 0xE0041FD0) -- Data:  04 00 00 00 00 00 00 00 00 00 00 00 00 00 00 00 ...  returns 0x20 (0001ms, 0691ms total)
T2A78 012:065 JLINK_GetDebugInfo(0x102)  returns 0xFFFFFFFF (0000ms, 0691ms total)
T2A78 012:065 JLINK_GetDebugInfo(0x103)  returns 0xFFFFFFFF (0000ms, 0691ms total)
T2A78 012:065 JLINK_ReadMemEx(0xE0040FF0, 0x0010 Bytes, ..., AccessWidth = 33554436) -- CPU is running -- CPU_ReadMem(16 bytes @ 0xE0040FF0) -- Data:  0D 00 00 00 90 00 00 00 05 00 00 00 B1 00 00 00  returns 0x10 (0001ms, 0692ms total)
T2A78 012:066 JLINK_GetDebugInfo(0x104)  returns 0xFFFFFFFF (0000ms, 0692ms total)
T2A78 012:066 JLINK_GetDebugInfo(0x105)  returns 0xFFFFFFFF (0000ms, 0692ms total)
T2A78 012:066 JLINK_GetDebugInfo(0x106)  returns 0xFFFFFFFF (0000ms, 0692ms total)
T2A78 012:066 JLINK_GetDebugInfo(0x107)  returns 0xFFFFFFFF (0000ms, 0692ms total)
T2A78 012:066 JLINK_GetDebugInfo(0x10C)  returns 0xFFFFFFFF (0000ms, 0692ms total)
T2A78 012:066 JLINK_GetDebugInfo(0x01)  returns 0xFFFFFFFF (0000ms, 0692ms total)
T2A78 012:066 JLINK_GetDeviceFamily()  returns 3 (0000ms, 0692ms total)
T2A78 012:066 JLINK_ReadMemU32(0xE000ED00, 0x0001 Items, ...) -- CPU is running -- CPU_ReadMem(4 bytes @ 0xE000ED00) -- Data:  31 C2 1F 41  returns 0x01 (0000ms, 0692ms total)
T2A78 012:066 JLINK_GetDebugInfo(0x10F)  returns 0xFFFFFFFF (0000ms, 0692ms total)
T2A78 012:066 JLINK_SetResetType(JLINKARM_RESET_TYPE_NORMAL)  returns JLINKARM_RESET_TYPE_NORMAL (0000ms, 0692ms total)
T2A78 012:066 JLINK_Reset() >0x48 JTAG> >0x80 JTAG> >0x40 JTAG> >0x40 JTAG> >0x50 JTAG> >0x40 JTAG> >0x40 JTAG> >0x40 JTAG> >0x50 JTAG> >0x40 JTAG> >0x40 JTAG> >0x30 JTAG> >0x40 JTAG> >0x40 JTAG> >0x40 JTAG> >0x40 JTAG> >0x40 JTAG> >0x50 JTAG> >0x40 JTAG> >0x80 JTAG> >0x40 JTAG> >0x30 JTAG> >0x40 JTAG> >0x40 JTAG> >0x40 JTAG> >0x40 JTAG> >0x40 JTAG> >0x50 JTAG> >0x40 JTAG> >0x80 JTAG> >0x40 JTAG> >0x30 JTAG> >0x40 JTAG> >0x50 JTAG> >0x40 JTAG> >0x40 JTAG> >0x40 JTAG> >0x30 JTAG> >0x40 JTAG> >0x50 JTAG>
 >0x40 JTAG>Found Cortex-M3 r1p1, Little endian. >0x50 JTAG> >0x50 JTAG> >0x40 JTAG> >0x40 JTAG> >0x30 JTAG> >0x30 JTAG> >0x50 JTAG> >0x40 JTAG> >0x80 JTAG> >0x40 JTAG> >0x30 JTAG> >0x40 JTAG> >0x50 JTAG> >0x40 JTAG> >0x40 JTAG> >0x40 JTAG> >0x30 JTAG> >0x40 JTAG> >0x50 JTAG> >0x40 JTAG>TPIU fitted. >0x40 JTAG> >0x40 JTAG> >0x30 JTAG> >0x40 JTAG> >0x50 JTAG> >0x40 JTAG>ETM fitted. >0x40 JTAG> >0x40 JTAG> >0x30 JTAG> >0x40 JTAG> >0x50 JTAG> >0x40 JTAG> >0x40 JTAG> >0x40 JTAG> >0x30 JTAG> >0x40 JTAG>
 >0x50 JTAG> >0x40 JTAG>FPUnit: 6 code (BP) slots and 2 literal slots >0x40 JTAG> >0x40 JTAG> >0x30 JTAG> >0x40 JTAG> >0x50 JTAG> >0x40 JTAG> >0x40 JTAG> >0x40 JTAG> >0x30 JTAG> >0x40 JTAG> >0x50 JTAG> >0x40 JTAG> -- CPU is running -- CPU_WriteMem(4 bytes @ 0xE000EDF0) -- CPU is running -- CPU_WriteMem(4 bytes @ 0xE000EDFC) -- CPU is running -- CPU_WriteMem(4 bytes @ 0xE000ED0C) -- CPU is running -- CPU_ReadMem(4 bytes @ 0xE000EDF0) -- CPU is running -- CPU_ReadMem(4 bytes @ 0xE000EDF0) -- CPU is running
 -- CPU_WriteMem(4 bytes @ 0xE000EDF0) -- CPU is running -- CPU_WriteMem(4 bytes @ 0xE000EDFC) -- CPU is running -- CPU_ReadMem(4 bytes @ 0xE000EDF0) >0x90 JTAG> >0x40 JTAG> >0x30 JTAG> >0x40 JTAG> >0x50 JTAG> >0x40 JTAG> -- CPU_WriteMem(4 bytes @ 0xE000EDFC) -- CPU_WriteMem(4 bytes @ 0xE0001028) -- CPU_WriteMem(4 bytes @ 0xE0001038) -- CPU_WriteMem(4 bytes @ 0xE0001048) -- CPU_WriteMem(4 bytes @ 0xE0001058) -- CPU_WriteMem(4 bytes @ 0xE0002000) (0044ms, 0736ms total)
T2A78 012:110 JLINK_ReadReg(R15)  returns 0x080001CC (0000ms, 0736ms total)
T2A78 012:110 JLINK_ReadReg(XPSR)  returns 0x01000000 (0000ms, 0736ms total)
T2A78 012:110 JLINK_Halt()  returns 0x00 (0000ms, 0736ms total)
T2A78 012:110 JLINK_ReadMemU32(0xE000EDF0, 0x0001 Items, ...) -- CPU_ReadMem(4 bytes @ 0xE000EDF0) -- Data:  03 00 03 00  returns 0x01 (0001ms, 0737ms total)
T2A78 012:111 JLINK_WriteU32(0xE000EDF0, 0xA05F0003) -- CPU_WriteMem(4 bytes @ 0xE000EDF0)  returns 0x00 (0000ms, 0737ms total)
T2A78 012:111 JLINK_WriteU32(0xE000EDFC, 0x01000000) -- CPU_WriteMem(4 bytes @ 0xE000EDFC)  returns 0x00 (0001ms, 0738ms total)
T2A78 012:112 JLINK_GetHWStatus(...)  returns 0x00 (0000ms, 0738ms total)
T2A78 012:112 JLINK_GetNumBPUnits(Type = 0xFFFFFF00)  returns 0x06 (0000ms, 0738ms total)
T2A78 012:112 JLINK_GetNumBPUnits(Type = 0xF0)  returns 0x2000 (0000ms, 0738ms total)
T2A78 012:112 JLINK_GetNumWPUnits()  returns 0x04 (0000ms, 0738ms total)
T2A78 012:112 JLINK_GetSpeed()  returns 0x12C0 (0000ms, 0738ms total)
T2A78 012:112 JLINK_ReadMemU32(0xE000E004, 0x0001 Items, ...) -- CPU_ReadMem(4 bytes @ 0xE000E004) -- Data:  01 00 00 00  returns 0x01 (0001ms, 0739ms total)
T2A78 012:113 JLINK_ReadMemU32(0xE000E004, 0x0001 Items, ...) -- CPU_ReadMem(4 bytes @ 0xE000E004) -- Data:  01 00 00 00  returns 0x01 (0000ms, 0739ms total)
T2A78 012:113 JLINK_WriteMemEx(0xE0001000, 0x001C Bytes, ..., AccessWidth = 33554436) -- Data:  01 00 00 00 00 00 00 00 00 00 00 00 00 00 00 00 ... -- CPU_WriteMem(28 bytes @ 0xE0001000)  returns 0x1C (0001ms, 0740ms total)
T2A78 012:114 JLINK_ReadReg(R15)  returns 0x080001CC (0000ms, 0740ms total)
T2A78 012:114 JLINK_ReadReg(XPSR)  returns 0x01000000 (0000ms, 0740ms total)
T2A78 012:124 JLINK_ReadMemEx(0xE0001004, 0x0004 Bytes, ..., AccessWidth = 33554432)Mis-aligned memory write: Address: 0xE0001004, NumBytes: 4, Alignment: 2 (Halfword-aligned)
  ***** Mis-aligned memory write: Address: 0xE0001004, NumBytes: 4, Alignment: 2 (Halfword-aligned) -- CPU_ReadMem(4 bytes @ 0xE0001004) -- Data:  00 00 00 00  returns 0x04 (0000ms, 0740ms total)
T2A78 012:192 JLINK_SetResetType(JLINKARM_RESET_TYPE_NORMAL)  returns JLINKARM_RESET_TYPE_NORMAL (0000ms, 0740ms total)
